Sample in Buffer,Sample in Window,TRIGGER,data_out_valid,data_out_Q[15:0],data_out_I[15:0],out_valid,div[15:0],yq[17:0],yi[17:0],fir_data_Q[15:0],fir_data_I[15:0],adc_valid,adc_data_q1[11:0],adc_data_i1[11:0],w[15:0],e[15:0],u[15:0],clk_4MHz,<const0>_1,<const0>_2,<const0>_3,<const0>_4,<const0>_5,<const0>_6,<const0>_7,<const0>_8,<const0>_9,<const0>_10,<const0>_11,<const0>_12,<const0>_13,<const0>_14,<const0>_15,<const0>_16,<const0>_17,<const0>_18,<const0>_19,<const0>_20,<const0>_21,<const0>_22,<const0>_23,<const0>
Radix - UNSIGNED,UNSIGNED,UNSIGNED,HEX,SIGNED,SIGNED,HEX,SIGNED,SIGNED,SIGNED,SIGNED,HEX,HEX,SIGNED,SIGNED,HEX,HEX,HEX,HEX,HEX,HEX,HEX,HEX,HEX,HEX,HEX,HEX,HEX,HEX,HEX,HEX,HEX,HEX,HEX,HEX,HEX,HEX,HEX,HEX,HEX,HEX,HEX,HEX
0,0,0,0,4362,4076,0,1961,20453,-1284,-98,c84d,0,1322,-44,3f68,0000,6398,1,0,0,0,0,0,0,0,0,0,0,0,0,0,0,0,0,0,0,0,0,0,0,0,0
1,1,0,0,4362,4076,0,1961,20453,-1284,-98,c84d,1,1407,38,3f68,0000,6398,1,0,0,0,0,0,0,0,0,0,0,0,0,0,0,0,0,0,0,0,0,0,0,0,0
2,2,0,1,4362,4076,0,1961,20453,-1284,628,ddd9,0,1407,38,3f68,0000,6398,0,0,0,0,0,0,0,0,0,0,0,0,0,0,0,0,0,0,0,0,0,0,0,0,0
3,3,0,0,4362,4076,0,1961,20453,-1284,628,ddd9,1,1463,39,3f68,0000,6398,0,0,0,0,0,0,0,0,0,0,0,0,0,0,0,0,0,0,0,0,0,0,0,0,0
4,4,0,0,4362,4076,1,1961,20453,-1284,1199,f796,0,1463,39,3f68,0000,6398,1,0,0,0,0,0,0,0,0,0,0,0,0,0,0,0,0,0,0,0,0,0,0,0,0
5,5,0,0,4362,4076,1,1961,20453,-1284,1199,f796,1,1492,-27,3f68,0000,6398,1,0,0,0,0,0,0,0,0,0,0,0,0,0,0,0,0,0,0,0,0,0,0,0,0
6,6,0,0,4362,4076,1,1961,20453,-1284,1561,130d,0,1492,-27,3f68,0000,6398,0,0,0,0,0,0,0,0,0,0,0,0,0,0,0,0,0,0,0,0,0,0,0,0,0
7,7,0,0,4362,4076,1,1961,20453,-1284,1561,130d,1,1494,-134,3f68,0000,6398,0,0,0,0,0,0,0,0,0,0,0,0,0,0,0,0,0,0,0,0,0,0,0,0,0
8,8,0,0,4362,4076,0,1961,20453,-1284,1681,2dcd,0,1494,-134,3f68,0000,65f8,1,0,0,0,0,0,0,0,0,0,0,0,0,0,0,0,0,0,0,0,0,0,0,0,0
9,9,0,0,4362,4076,0,1961,20453,-1284,1681,2dcd,1,1473,-252,3f68,0000,65f8,1,0,0,0,0,0,0,0,0,0,0,0,0,0,0,0,0,0,0,0,0,0,0,0,0
10,10,0,0,-4336,4247,0,1961,20453,-1284,1556,45b0,0,1473,-252,3f68,0000,65f8,0,0,0,0,0,0,0,0,0,0,0,0,0,0,0,0,0,0,0,0,0,0,0,0,0
11,11,0,0,-4336,4247,0,1961,20453,-1284,1556,45b0,1,1431,-348,3f68,0000,65f8,0,0,0,0,0,0,0,0,0,0,0,0,0,0,0,0,0,0,0,0,0,0,0,0,0
12,12,0,0,-4336,4247,0,1961,19636,-2573,1219,5915,0,1431,-348,4000,0000,65f8,1,0,0,0,0,0,0,0,0,0,0,0,0,0,0,0,0,0,0,0,0,0,0,0,0
13,13,0,0,-4336,4247,0,1961,19636,-2573,1219,5915,1,1375,-393,4000,0000,65f8,1,0,0,0,0,0,0,0,0,0,0,0,0,0,0,0,0,0,0,0,0,0,0,0,0
14,14,0,0,-4336,4247,0,1961,19636,-2573,736,66f7,0,1375,-393,4000,0000,65f8,0,0,0,0,0,0,0,0,0,0,0,0,0,0,0,0,0,0,0,0,0,0,0,0,0
15,15,0,0,-4336,4247,0,1961,19636,-2573,736,66f7,1,1310,-363,4000,0000,65f8,0,0,0,0,0,0,0,0,0,0,0,0,0,0,0,0,0,0,0,0,0,0,0,0,0
16,16,0,0,-4336,4247,0,1961,19636,-2573,208,6ef5,0,1310,-363,4000,0000,6858,1,0,0,0,0,0,0,0,0,0,0,0,0,0,0,0,0,0,0,0,0,0,0,0,0
17,17,0,0,-4336,4247,0,1961,19636,-2573,208,6ef5,1,1237,-244,4000,0000,6858,1,0,0,0,0,0,0,0,0,0,0,0,0,0,0,0,0,0,0,0,0,0,0,0,0
18,18,0,1,-4336,4247,0,1961,19636,-2573,-238,7142,0,1237,-244,4000,0000,6858,0,0,0,0,0,0,0,0,0,0,0,0,0,0,0,0,0,0,0,0,0,0,0,0,0
19,19,0,0,-4336,4247,0,1961,19636,-2573,-238,7142,1,1151,-33,4000,0000,6858,0,0,0,0,0,0,0,0,0,0,0,0,0,0,0,0,0,0,0,0,0,0,0,0,0
20,20,0,0,-4336,4247,1,1961,19636,-2573,-466,6e80,0,1151,-33,4000,c8e0,6858,1,0,0,0,0,0,0,0,0,0,0,0,0,0,0,0,0,0,0,0,0,0,0,0,0
21,21,0,0,-4336,4247,1,1961,19636,-2573,-466,6e80,1,1044,256,4000,c8e0,6858,1,0,0,0,0,0,0,0,0,0,0,0,0,0,0,0,0,0,0,0,0,0,0,0,0
22,22,0,0,-4336,4247,1,1961,19636,-2573,-343,679a,0,1044,256,4000,c8e0,6858,0,0,0,0,0,0,0,0,0,0,0,0,0,0,0,0,0,0,0,0,0,0,0,0,0
23,23,0,0,-4336,4247,1,1961,19636,-2573,-343,679a,1,910,587,4000,c8e0,6858,0,0,0,0,0,0,0,0,0,0,0,0,0,0,0,0,0,0,0,0,0,0,0,0,0
24,24,0,0,-4336,4247,0,1961,19636,-2573,236,5d9b,0,910,587,4000,c8e0,6858,1,0,0,0,0,0,0,0,0,0,0,0,0,0,0,0,0,0,0,0,0,0,0,0,0
25,25,0,0,-4336,4247,0,1961,19636,-2573,236,5d9b,1,747,911,4000,c8e0,6858,1,0,0,0,0,0,0,0,0,0,0,0,0,0,0,0,0,0,0,0,0,0,0,0,0
26,26,0,0,-3925,4316,0,1961,19636,-2573,1337,518c,0,747,911,4000,c8e0,6858,0,0,0,0,0,0,0,0,0,0,0,0,0,0,0,0,0,0,0,0,0,0,0,0,0
27,27,0,0,-3925,4316,0,1961,19636,-2573,1337,518c,1,561,1186,4000,c8e0,6858,0,0,0,0,0,0,0,0,0,0,0,0,0,0,0,0,0,0,0,0,0,0,0,0,0
28,28,0,0,-3925,4316,0,1961,19644,-1544,2970,445b,0,561,1186,3f23,0000,6858,1,0,0,0,0,0,0,0,0,0,0,0,0,0,0,0,0,0,0,0,0,0,0,0,0
29,29,0,0,-3925,4316,0,1961,19644,-1544,2970,445b,1,361,1386,3f23,0000,6858,1,0,0,0,0,0,0,0,0,0,0,0,0,0,0,0,0,0,0,0,0,0,0,0,0
30,30,0,0,-3925,4316,0,1961,19644,-1544,5084,36d2,0,361,1386,3f23,0000,6858,0,0,0,0,0,0,0,0,0,0,0,0,0,0,0,0,0,0,0,0,0,0,0,0,0
31,31,0,0,-3925,4316,0,1961,19644,-1544,5084,36d2,1,154,1495,3f23,0000,6858,0,0,0,0,0,0,0,0,0,0,0,0,0,0,0,0,0,0,0,0,0,0,0,0,0
32,32,0,0,-3925,4316,0,1961,19644,-1544,7569,2995,0,154,1495,3f23,0000,6858,1,0,0,0,0,0,0,0,0,0,0,0,0,0,0,0,0,0,0,0,0,0,0,0,0
33,33,0,0,-3925,4316,0,1961,19644,-1544,7569,2995,1,-56,1508,3f23,0000,6858,1,0,0,0,0,0,0,0,0,0,0,0,0,0,0,0,0,0,0,0,0,0,0,0,0
34,34,0,1,-3925,4316,0,1961,19644,-1544,10267,1d25,0,-56,1508,3f23,0000,6858,0,0,0,0,0,0,0,0,0,0,0,0,0,0,0,0,0,0,0,0,0,0,0,0,0
35,35,0,0,-3925,4316,0,1961,19644,-1544,10267,1d25,1,-265,1427,3f23,0000,6858,0,0,0,0,0,0,0,0,0,0,0,0,0,0,0,0,0,0,0,0,0,0,0,0,0
36,36,0,0,-3925,4316,1,1961,19644,-1544,12990,11eb,0,-265,1427,3f23,3700,6858,1,0,0,0,0,0,0,0,0,0,0,0,0,0,0,0,0,0,0,0,0,0,0,0,0
37,37,0,0,-3925,4316,1,1961,19644,-1544,12990,11eb,1,-471,1259,3f23,3700,6858,1,0,0,0,0,0,0,0,0,0,0,0,0,0,0,0,0,0,0,0,0,0,0,0,0
38,38,0,0,-3925,4316,1,1961,19644,-1544,15544,0838,0,-471,1259,3f23,3700,6858,0,0,0,0,0,0,0,0,0,0,0,0,0,0,0,0,0,0,0,0,0,0,0,0,0
39,39,0,0,-3925,4316,1,1961,19644,-1544,15544,0838,1,-668,1019,3f23,3700,6858,0,0,0,0,0,0,0,0,0,0,0,0,0,0,0,0,0,0,0,0,0,0,0,0,0
40,40,0,0,-3925,4316,0,1961,19644,-1544,17756,004b,0,-668,1019,3f23,f8cc,6bcc,1,0,0,0,0,0,0,0,0,0,0,0,0,0,0,0,0,0,0,0,0,0,0,0,0
41,41,0,0,-3925,4316,0,1961,19644,-1544,17756,004b,1,-849,734,3f23,f8cc,6bcc,1,0,0,0,0,0,0,0,0,0,0,0,0,0,0,0,0,0,0,0,0,0,0,0,0
42,42,0,0,-4117,4257,0,1961,19644,-1544,19495,fa4f,0,-849,734,3f23,f8cc,6bcc,0,0,0,0,0,0,0,0,0,0,0,0,0,0,0,0,0,0,0,0,0,0,0,0,0
43,43,0,0,-4117,4257,0,1961,19644,-1544,19495,fa4f,1,-1014,443,3f23,f8cc,6bcc,0,0,0,0,0,0,0,0,0,0,0,0,0,0,0,0,0,0,0,0,0,0,0,0,0
44,44,0,0,-4117,4257,0,1961,872,19796,20692,f64f,0,-1014,443,3fe3,0000,6bcc,1,0,0,0,0,0,0,0,0,0,0,0,0,0,0,0,0,0,0,0,0,0,0,0,0
45,45,0,0,-4117,4257,0,1961,872,19796,20692,f64f,1,-1164,189,3fe3,0000,6bcc,1,0,0,0,0,0,0,0,0,0,0,0,0,0,0,0,0,0,0,0,0,0,0,0,0
46,46,0,0,-4117,4257,0,1961,872,19796,21342,f436,0,-1164,189,3fe3,0000,6bcc,0,0,0,0,0,0,0,0,0,0,0,0,0,0,0,0,0,0,0,0,0,0,0,0,0
47,47,0,0,-4117,4257,0,1961,872,19796,21342,f436,1,-1302,4,3fe3,0000,6bcc,0,0,0,0,0,0,0,0,0,0,0,0,0,0,0,0,0,0,0,0,0,0,0,0,0
48,48,0,0,-4117,4257,0,1961,872,19796,21511,f3c6,0,-1302,4,3fe3,0000,6f40,1,0,0,0,0,0,0,0,0,0,0,0,0,0,0,0,0,0,0,0,0,0,0,0,0
49,49,0,0,-4117,4257,0,1961,872,19796,21511,f3c6,1,-1433,-99,3fe3,0000,6f40,1,0,0,0,0,0,0,0,0,0,0,0,0,0,0,0,0,0,0,0,0,0,0,0,0
50,50,0,1,-4117,4257,0,1961,872,19796,21315,f49a,0,-1433,-99,3fe3,0000,6f40,0,0,0,0,0,0,0,0,0,0,0,0,0,0,0,0,0,0,0,0,0,0,0,0,0
51,51,0,0,-4117,4257,0,1961,872,19796,21315,f49a,1,-1558,-123,3fe3,0000,6f40,0,0,0,0,0,0,0,0,0,0,0,0,0,0,0,0,0,0,0,0,0,0,0,0,0
52,52,0,0,-4117,4257,1,1961,872,19796,20904,f62e,0,-1558,-123,3fe3,3316,6f40,1,0,0,0,0,0,0,0,0,0,0,0,0,0,0,0,0,0,0,0,0,0,0,0,0
53,53,0,0,-4117,4257,1,1961,872,19796,20904,f62e,1,-1674,-80,3fe3,3316,6f40,1,0,0,0,0,0,0,0,0,0,0,0,0,0,0,0,0,0,0,0,0,0,0,0,0
54,54,0,0,-4117,4257,1,1961,872,19796,20438,f7ec,0,-1674,-80,3fe3,3316,6f40,0,0,0,0,0,0,0,0,0,0,0,0,0,0,0,0,0,0,0,0,0,0,0,0,0
55,55,0,0,-4117,4257,1,1961,872,19796,20438,f7ec,1,-1769,9,3fe3,3316,6f40,0,0,0,0,0,0,0,0,0,0,0,0,0,0,0,0,0,0,0,0,0,0,0,0,0
56,56,0,0,-4117,4257,0,1961,872,19796,20057,f94b,0,-1769,9,3fe3,1b9c,6fb4,1,0,0,0,0,0,0,0,0,0,0,0,0,0,0,0,0,0,0,0,0,0,0,0,0
57,57,0,0,-4117,4257,0,1961,872,19796,20057,f94b,1,-1829,117,3fe3,1b9c,6fb4,1,0,0,0,0,0,0,0,0,0,0,0,0,0,0,0,0,0,0,0,0,0,0,0,0
58,58,0,0,-3947,4307,0,1961,872,19796,19866,f9dd,0,-1829,117,3fe3,1b9c,6fb4,0,0,0,0,0,0,0,0,0,0,0,0,0,0,0,0,0,0,0,0,0,0,0,0,0
59,59,0,0,-3947,4307,0,1961,872,19796,19866,f9dd,1,-1837,216,3fe3,1b9c,6fb4,0,0,0,0,0,0,0,0,0,0,0,0,0,0,0,0,0,0,0,0,0,0,0,0,0
60,60,0,0,-3947,4307,0,1961,-2079,-20636,19910,f96d,0,-1837,216,406e,0000,6fb4,1,0,0,0,0,0,0,0,0,0,0,0,0,0,0,0,0,0,0,0,0,0,0,0,0
61,61,0,0,-3947,4307,0,1961,-2079,-20636,19910,f96d,1,-1779,282,406e,0000,6fb4,1,0,0,0,0,0,0,0,0,0,0,0,0,0,0,0,0,0,0,0,0,0,0,0,0
62,62,0,0,-3947,4307,0,1961,-2079,-20636,20176,f803,0,-1779,282,406e,0000,6fb4,0,0,0,0,0,0,0,0,0,0,0,0,0,0,0,0,0,0,0,0,0,0,0,0,0
63,63,0,0,-3947,4307,0,1961,-2079,-20636,20176,f803,1,-1639,300,406e,0000,6fb4,0,0,0,0,0,0,0,0,0,0,0,0,0,0,0,0,0,0,0,0,0,0,0,0,0
64,64,0,0,-3947,4307,0,1961,-2079,-20636,20592,f5ef,0,-1639,300,406e,0000,7028,1,0,0,0,0,0,0,0,0,0,0,0,0,0,0,0,0,0,0,0,0,0,0,0,0
65,65,0,0,-3947,4307,0,1961,-2079,-20636,20592,f5ef,1,-1397,260,406e,0000,7028,1,0,0,0,0,0,0,0,0,0,0,0,0,0,0,0,0,0,0,0,0,0,0,0,0
66,66,0,1,-3947,4307,0,1961,-2079,-20636,21038,f3bc,0,-1397,260,406e,0000,7028,0,0,0,0,0,0,0,0,0,0,0,0,0,0,0,0,0,0,0,0,0,0,0,0,0
67,67,0,0,-3947,4307,0,1961,-2079,-20636,21038,f3bc,1,-1032,158,406e,0000,7028,0,0,0,0,0,0,0,0,0,0,0,0,0,0,0,0,0,0,0,0,0,0,0,0,0
68,68,0,0,-3947,4307,1,1961,-2079,-20636,21372,f21e,0,-1032,158,406e,dff6,7028,1,0,0,0,0,0,0,0,0,0,0,0,0,0,0,0,0,0,0,0,0,0,0,0,0
69,69,0,0,-3947,4307,1,1961,-2079,-20636,21372,f21e,1,-547,5,406e,dff6,7028,1,0,0,0,0,0,0,0,0,0,0,0,0,0,0,0,0,0,0,0,0,0,0,0,0
70,70,0,0,-3947,4307,1,1961,-2079,-20636,21447,f1d5,0,-547,5,406e,dff6,7028,0,0,0,0,0,0,0,0,0,0,0,0,0,0,0,0,0,0,0,0,0,0,0,0,0
71,71,0,0,-3947,4307,1,1961,-2079,-20636,21447,f1d5,1,8,-166,406e,dff6,7028,0,0,0,0,0,0,0,0,0,0,0,0,0,0,0,0,0,0,0,0,0,0,0,0,0
72,72,0,0,-3947,4307,0,1961,-2079,-20636,21135,f390,0,8,-166,406e,d51a,6e70,1,0,0,0,0,0,0,0,0,0,0,0,0,0,0,0,0,0,0,0,0,0,0,0,0
73,73,0,0,-3947,4307,0,1961,-2079,-20636,21135,f390,1,550,-313,406e,d51a,6e70,1,0,0,0,0,0,0,0,0,0,0,0,0,0,0,0,0,0,0,0,0,0,0,0,0
74,74,0,0,4422,4007,0,1961,-2079,-20636,20350,f7c7,0,550,-313,406e,d51a,6e70,0,0,0,0,0,0,0,0,0,0,0,0,0,0,0,0,0,0,0,0,0,0,0,0,0
75,75,0,0,4422,4007,0,1961,-2079,-20636,20350,f7c7,1,997,-398,406e,d51a,6e70,0,0,0,0,0,0,0,0,0,0,0,0,0,0,0,0,0,0,0,0,0,0,0,0,0
76,76,0,0,4422,4007,0,1961,1391,21606,19053,fea8,0,997,-398,3f54,0000,6e70,1,0,0,0,0,0,0,0,0,0,0,0,0,0,0,0,0,0,0,0,0,0,0,0,0
77,77,0,0,4422,4007,0,1961,1391,21606,19053,fea8,1,1309,-405,3f54,0000,6e70,1,0,0,0,0,0,0,0,0,0,0,0,0,0,0,0,0,0,0,0,0,0,0,0,0
78,78,0,0,4422,4007,0,1961,1391,21606,17264,080b,0,1309,-405,3f54,0000,6e70,0,0,0,0,0,0,0,0,0,0,0,0,0,0,0,0,0,0,0,0,0,0,0,0,0
79,79,0,0,4422,4007,0,1961,1391,21606,17264,080b,1,1482,-330,3f54,0000,6e70,0,0,0,0,0,0,0,0,0,0,0,0,0,0,0,0,0,0,0,0,0,0,0,0,0
80,80,0,0,4422,4007,0,1961,1391,21606,15056,1374,0,1482,-330,3f54,0000,6cb8,1,0,0,0,0,0,0,0,0,0,0,0,0,0,0,0,0,0,0,0,0,0,0,0,0
81,81,0,0,4422,4007,0,1961,1391,21606,15056,1374,1,1530,-176,3f54,0000,6cb8,1,0,0,0,0,0,0,0,0,0,0,0,0,0,0,0,0,0,0,0,0,0,0,0,0
82,82,0,1,4422,4007,0,1961,1391,21606,12543,2023,0,1530,-176,3f54,0000,6cb8,0,0,0,0,0,0,0,0,0,0,0,0,0,0,0,0,0,0,0,0,0,0,0,0,0
83,83,0,0,4422,4007,0,1961,1391,21606,12543,2023,1,1458,56,3f54,0000,6cb8,0,0,0,0,0,0,0,0,0,0,0,0,0,0,0,0,0,0,0,0,0,0,0,0,0
84,84,0,0,4422,4007,1,1961,1391,21606,9869,2d2c,0,1458,56,3f54,0000,6cb8,1,0,0,0,0,0,0,0,0,0,0,0,0,0,0,0,0,0,0,0,0,0,0,0,0
85,85,0,0,4422,4007,1,1961,1391,21606,9869,2d2c,1,1269,355,3f54,0000,6cb8,1,0,0,0,0,0,0,0,0,0,0,0,0,0,0,0,0,0,0,0,0,0,0,0,0
86,86,0,0,4422,4007,1,1961,1391,21606,7193,399b,0,1269,355,3f54,0000,6cb8,0,0,0,0,0,0,0,0,0,0,0,0,0,0,0,0,0,0,0,0,0,0,0,0,0
87,87,0,0,4422,4007,1,1961,1391,21606,7193,399b,1,983,683,3f54,0000,6cb8,0,0,0,0,0,0,0,0,0,0,0,0,0,0,0,0,0,0,0,0,0,0,0,0,0
88,88,0,0,4422,4007,0,1961,1391,21606,4665,4492,0,983,683,3f54,0000,6f68,1,0,0,0,0,0,0,0,0,0,0,0,0,0,0,0,0,0,0,0,0,0,0,0,0
89,89,0,0,4422,4007,0,1961,1391,21606,4665,4492,1,646,991,3f54,0000,6f68,1,0,0,0,0,0,0,0,0,0,0,0,0,0,0,0,0,0,0,0,0,0,0,0,0
90,90,0,0,-4133,4284,0,1961,1391,21606,2423,4d68,0,646,991,3f54,0000,6f68,0,0,0,0,0,0,0,0,0,0,0,0,0,0,0,0,0,0,0,0,0,0,0,0,0
91,91,0,0,-4133,4284,0,1961,1391,21606,2423,4d68,1,325,1234,3f54,0000,6f68,0,0,0,0,0,0,0,0,0,0,0,0,0,0,0,0,0,0,0,0,0,0,0,0,0
92,92,0,0,-4133,4284,0,1961,2403,18461,575,53ba,0,325,1234,4000,0000,6f68,1,0,0,0,0,0,0,0,0,0,0,0,0,0,0,0,0,0,0,0,0,0,0,0,0
93,93,0,0,-4133,4284,0,1961,2403,18461,575,53ba,1,76,1394,4000,0000,6f68,1,0,0,0,0,0,0,0,0,0,0,0,0,0,0,0,0,0,0,0,0,0,0,0,0
94,94,0,0,-4133,4284,0,1961,2403,18461,-805,5775,0,76,1394,4000,0000,6f68,0,0,0,0,0,0,0,0,0,0,0,0,0,0,0,0,0,0,0,0,0,0,0,0,0
95,95,0,0,-4133,4284,0,1961,2403,18461,-805,5775,1,-69,1469,4000,0000,6f68,0,0,0,0,0,0,0,0,0,0,0,0,0,0,0,0,0,0,0,0,0,0,0,0,0
96,96,0,0,-4133,4284,0,1961,2403,18461,-1674,58d3,0,-69,1469,4000,0000,7218,1,0,0,0,0,0,0,0,0,0,0,0,0,0,0,0,0,0,0,0,0,0,0,0,0
97,97,0,0,-4133,4284,0,1961,2403,18461,-1674,58d3,1,-102,1459,4000,0000,7218,1,0,0,0,0,0,0,0,0,0,0,0,0,0,0,0,0,0,0,0,0,0,0,0,0
98,98,0,1,-4133,4284,0,1961,2403,18461,-2027,584b,0,-102,1459,4000,0000,7218,0,0,0,0,0,0,0,0,0,0,0,0,0,0,0,0,0,0,0,0,0,0,0,0,0
99,99,0,0,-4133,4284,0,1961,2403,18461,-2027,584b,1,-25,1365,4000,0000,7218,0,0,0,0,0,0,0,0,0,0,0,0,0,0,0,0,0,0,0,0,0,0,0,0,0
100,100,1,0,-4133,4284,1,1961,2403,18461,-1891,5678,0,-25,1365,4000,1630,7218,1,0,0,0,0,0,0,0,0,0,0,0,0,0,0,0,0,0,0,0,0,0,0,0,0
101,101,0,0,-4133,4284,1,1961,2403,18461,-1891,5678,1,153,1194,4000,1630,7218,1,0,0,0,0,0,0,0,0,0,0,0,0,0,0,0,0,0,0,0,0,0,0,0,0
102,102,0,0,-4133,4284,1,1961,2403,18461,-1323,5404,0,153,1194,4000,1630,7218,0,0,0,0,0,0,0,0,0,0,0,0,0,0,0,0,0,0,0,0,0,0,0,0,0
103,103,0,0,-4133,4284,1,1961,2403,18461,-1323,5404,1,405,958,4000,1630,7218,0,0,0,0,0,0,0,0,0,0,0,0,0,0,0,0,0,0,0,0,0,0,0,0,0
104,104,0,0,-4133,4284,0,1961,2403,18461,-408,518b,0,405,958,4000,1630,7218,1,0,0,0,0,0,0,0,0,0,0,0,0,0,0,0,0,0,0,0,0,0,0,0,0
105,105,0,0,-4133,4284,0,1961,2403,18461,-408,518b,1,692,676,4000,1630,7218,1,0,0,0,0,0,0,0,0,0,0,0,0,0,0,0,0,0,0,0,0,0,0,0,0
106,106,0,0,4501,3771,0,1961,2403,18461,742,4f85,0,692,676,4000,1630,7218,0,0,0,0,0,0,0,0,0,0,0,0,0,0,0,0,0,0,0,0,0,0,0,0,0
107,107,0,0,4501,3771,0,1961,2403,18461,742,4f85,1,972,380,4000,1630,7218,0,0,0,0,0,0,0,0,0,0,0,0,0,0,0,0,0,0,0,0,0,0,0,0,0
108,108,0,0,4501,3771,0,1961,20521,-2360,1996,4e40,0,972,380,4058,0000,7218,1,0,0,0,0,0,0,0,0,0,0,0,0,0,0,0,0,0,0,0,0,0,0,0,0
109,109,0,0,4501,3771,0,1961,20521,-2360,1996,4e40,1,1212,107,4058,0000,7218,1,0,0,0,0,0,0,0,0,0,0,0,0,0,0,0,0,0,0,0,0,0,0,0,0
110,110,0,0,4501,3771,0,1961,20521,-2360,3205,4dd3,0,1212,107,4058,0000,7218,0,0,0,0,0,0,0,0,0,0,0,0,0,0,0,0,0,0,0,0,0,0,0,0,0
111,111,0,0,4501,3771,0,1961,20521,-2360,3205,4dd3,1,1395,-120,4058,0000,7218,0,0,0,0,0,0,0,0,0,0,0,0,0,0,0,0,0,0,0,0,0,0,0,0,0
112,112,0,0,4501,3771,0,1961,20521,-2360,4214,4e25,0,1395,-120,4058,0000,7218,1,0,0,0,0,0,0,0,0,0,0,0,0,0,0,0,0,0,0,0,0,0,0,0,0
113,113,0,0,4501,3771,0,1961,20521,-2360,4214,4e25,1,1523,-292,4058,0000,7218,1,0,0,0,0,0,0,0,0,0,0,0,0,0,0,0,0,0,0,0,0,0,0,0,0
114,114,0,1,4501,3771,0,1961,20521,-2360,4868,4ef8,0,1523,-292,4058,0000,7218,0,0,0,0,0,0,0,0,0,0,0,0,0,0,0,0,0,0,0,0,0,0,0,0,0
115,115,0,0,4501,3771,0,1961,20521,-2360,4868,4ef8,1,1602,-411,4058,0000,7218,0,0,0,0,0,0,0,0,0,0,0,0,0,0,0,0,0,0,0,0,0,0,0,0,0
116,116,0,0,4501,3771,1,1961,20521,-2360,5027,4ff4,0,1602,-411,4058,0000,7218,1,0,0,0,0,0,0,0,0,0,0,0,0,0,0,0,0,0,0,0,0,0,0,0,0
117,117,0,0,4501,3771,1,1961,20521,-2360,5027,4ff4,1,1642,-479,4058,0000,7218,1,0,0,0,0,0,0,0,0,0,0,0,0,0,0,0,0,0,0,0,0,0,0,0,0
118,118,0,0,4501,3771,1,1961,20521,-2360,4582,50b4,0,1642,-479,4058,0000,7218,0,0,0,0,0,0,0,0,0,0,0,0,0,0,0,0,0,0,0,0,0,0,0,0,0
119,119,0,0,4501,3771,1,1961,20521,-2360,4582,50b4,1,1651,-501,4058,0000,7218,0,0,0,0,0,0,0,0,0,0,0,0,0,0,0,0,0,0,0,0,0,0,0,0,0
120,120,0,0,4501,3771,0,1961,20521,-2360,3466,50d2,0,1651,-501,4058,0000,70b8,1,0,0,0,0,0,0,0,0,0,0,0,0,0,0,0,0,0,0,0,0,0,0,0,0
121,121,0,0,4501,3771,0,1961,20521,-2360,3466,50d2,1,1637,-481,4058,0000,70b8,1,0,0,0,0,0,0,0,0,0,0,0,0,0,0,0,0,0,0,0,0,0,0,0,0
122,122,0,0,-4612,-4195,0,1961,20521,-2360,1667,4ff0,0,1637,-481,4058,0000,70b8,0,0,0,0,0,0,0,0,0,0,0,0,0,0,0,0,0,0,0,0,0,0,0,0,0
123,123,0,0,-4612,-4195,0,1961,20521,-2360,1667,4ff0,1,1600,-423,4058,0000,70b8,0,0,0,0,0,0,0,0,0,0,0,0,0,0,0,0,0,0,0,0,0,0,0,0,0
124,124,0,0,-4612,-4195,0,1961,19842,-1593,-762,4dbc,0,1600,-423,4000,0000,70b8,1,0,0,0,0,0,0,0,0,0,0,0,0,0,0,0,0,0,0,0,0,0,0,0,0
125,125,0,0,-4612,-4195,0,1961,19842,-1593,-762,4dbc,1,1539,-326,4000,0000,70b8,1,0,0,0,0,0,0,0,0,0,0,0,0,0,0,0,0,0,0,0,0,0,0,0,0
126,126,0,0,-4612,-4195,0,1961,19842,-1593,-3705,49f2,0,1539,-326,4000,0000,70b8,0,0,0,0,0,0,0,0,0,0,0,0,0,0,0,0,0,0,0,0,0,0,0,0,0
127,127,0,0,-4612,-4195,0,1961,19842,-1593,-3705,49f2,1,1447,-186,4000,0000,70b8,0,0,0,0,0,0,0,0,0,0,0,0,0,0,0,0,0,0,0,0,0,0,0,0,0
128,128,0,0,-4612,-4195,0,1961,19842,-1593,-6989,445d,0,1447,-186,4000,0000,6f58,1,0,0,0,0,0,0,0,0,0,0,0,0,0,0,0,0,0,0,0,0,0,0,0,0
129,129,0,0,-4612,-4195,0,1961,19842,-1593,-6989,445d,1,1318,-1,4000,0000,6f58,1,0,0,0,0,0,0,0,0,0,0,0,0,0,0,0,0,0,0,0,0,0,0,0,0
130,130,0,1,-4612,-4195,0,1961,19842,-1593,-10393,3cda,0,1318,-1,4000,0000,6f58,0,0,0,0,0,0,0,0,0,0,0,0,0,0,0,0,0,0,0,0,0,0,0,0,0
131,131,0,0,-4612,-4195,0,1961,19842,-1593,-10393,3cda,1,1147,226,4000,0000,6f58,0,0,0,0,0,0,0,0,0,0,0,0,0,0,0,0,0,0,0,0,0,0,0,0,0
132,132,0,0,-4612,-4195,1,1961,19842,-1593,-13672,3355,0,1147,226,4000,ee4c,6f58,1,0,0,0,0,0,0,0,0,0,0,0,0,0,0,0,0,0,0,0,0,0,0,0,0
133,133,0,0,-4612,-4195,1,1961,19842,-1593,-13672,3355,1,937,487,4000,ee4c,6f58,1,0,0,0,0,0,0,0,0,0,0,0,0,0,0,0,0,0,0,0,0,0,0,0,0
134,134,0,0,-4612,-4195,1,1961,19842,-1593,-16579,27d6,0,937,487,4000,ee4c,6f58,0,0,0,0,0,0,0,0,0,0,0,0,0,0,0,0,0,0,0,0,0,0,0,0,0
135,135,0,0,-4612,-4195,1,1961,19842,-1593,-16579,27d6,1,703,759,4000,ee4c,6f58,0,0,0,0,0,0,0,0,0,0,0,0,0,0,0,0,0,0,0,0,0,0,0,0,0
136,136,0,0,-4612,-4195,0,1961,19842,-1593,-18885,1a81,0,703,759,4000,ee4c,6f58,1,0,0,0,0,0,0,0,0,0,0,0,0,0,0,0,0,0,0,0,0,0,0,0,0
137,137,0,0,-4612,-4195,0,1961,19842,-1593,-18885,1a81,1,469,1014,4000,ee4c,6f58,1,0,0,0,0,0,0,0,0,0,0,0,0,0,0,0,0,0,0,0,0,0,0,0,0
138,138,0,0,-3943,4477,0,1961,19842,-1593,-20406,0ba3,0,469,1014,4000,ee4c,6f58,0,0,0,0,0,0,0,0,0,0,0,0,0,0,0,0,0,0,0,0,0,0,0,0,0
139,139,0,0,-3943,4477,0,1961,19842,-1593,-20406,0ba3,1,265,1227,4000,ee4c,6f58,0,0,0,0,0,0,0,0,0,0,0,0,0,0,0,0,0,0,0,0,0,0,0,0,0
140,140,0,0,-3943,4477,0,1961,19460,-894,-21019,fbb3,0,265,1227,3fb9,0000,6f58,1,0,0,0,0,0,0,0,0,0,0,0,0,0,0,0,0,0,0,0,0,0,0,0,0
141,141,0,0,-3943,4477,0,1961,19460,-894,-21019,fbb3,1,115,1379,3fb9,0000,6f58,1,0,0,0,0,0,0,0,0,0,0,0,0,0,0,0,0,0,0,0,0,0,0,0,0
142,142,0,0,-3943,4477,0,1961,19460,-894,-20669,eb56,0,115,1379,3fb9,0000,6f58,0,0,0,0,0,0,0,0,0,0,0,0,0,0,0,0,0,0,0,0,0,0,0,0,0
143,143,0,0,-3943,4477,0,1961,19460,-894,-20669,eb56,1,37,1459,3fb9,0000,6f58,0,0,0,0,0,0,0,0,0,0,0,0,0,0,0,0,0,0,0,0,0,0,0,0,0
144,144,0,0,-3943,4477,0,1961,19460,-894,-19375,db5c,0,37,1459,3fb9,0000,6f58,1,0,0,0,0,0,0,0,0,0,0,0,0,0,0,0,0,0,0,0,0,0,0,0,0
145,145,0,0,-3943,4477,0,1961,19460,-894,-19375,db5c,1,37,1458,3fb9,0000,6f58,1,0,0,0,0,0,0,0,0,0,0,0,0,0,0,0,0,0,0,0,0,0,0,0,0
146,146,0,1,-3943,4477,0,1961,19460,-894,-17222,ccad,0,37,1458,3fb9,0000,6f58,0,0,0,0,0,0,0,0,0,0,0,0,0,0,0,0,0,0,0,0,0,0,0,0,0
147,147,0,0,-3943,4477,0,1961,19460,-894,-17222,ccad,1,119,1368,3fb9,0000,6f58,0,0,0,0,0,0,0,0,0,0,0,0,0,0,0,0,0,0,0,0,0,0,0,0,0
148,148,0,0,-3943,4477,1,1961,19460,-894,-14350,c039,0,119,1368,3fb9,02b6,6f58,1,0,0,0,0,0,0,0,0,0,0,0,0,0,0,0,0,0,0,0,0,0,0,0,0
149,149,0,0,-3943,4477,1,1961,19460,-894,-14350,c039,1,279,1182,3fb9,02b6,6f58,1,0,0,0,0,0,0,0,0,0,0,0,0,0,0,0,0,0,0,0,0,0,0,0,0
150,150,0,0,-3943,4477,1,1961,19460,-894,-10935,b6dc,0,279,1182,3fb9,02b6,6f58,0,0,0,0,0,0,0,0,0,0,0,0,0,0,0,0,0,0,0,0,0,0,0,0,0
