Sample in Buffer,Sample in Window,TRIGGER,yq[17:0],yi[17:0],fifo3_data_Q[15:0],fifo3_data_I[15:0],adc_valid,adc_data_q1[11:0],adc_data_i1[11:0],w[15:0],e[15:0],u[15:0],yqk[17:0],yik[17:0],<const0>_1,<const0>_2,<const0>_3,<const0>_4,<const0>_5,<const0>_6,<const0>_7,<const0>_8,<const0>_9,<const0>_10,<const0>_11,<const0>_12,<const0>_13,<const0>_14,<const0>_15,<const0>_16,<const0>_17,<const0>_18,<const0>_19,<const0>_20,<const0>_21,<const0>_22,<const0>_23,<const0>_24,<const0>_25,<const0>_26,<const0>_27,<const0>_28,<const0>_29,<const0>_30,<const0>_31,<const0>_32,<const0>_33,<const0>_34,<const0>_35,<const0>_36,<const0>_37,<const0>_38,<const0>
Radix - UNSIGNED,UNSIGNED,UNSIGNED,SIGNED,SIGNED,SIGNED,SIGNED,HEX,SIGNED,SIGNED,SIGNED,SIGNED,SIGNED,SIGNED,SIGNED,HEX,HEX,HEX,HEX,HEX,HEX,HEX,HEX,HEX,HEX,HEX,HEX,HEX,HEX,HEX,HEX,HEX,HEX,HEX,HEX,HEX,HEX,HEX,HEX,HEX,HEX,HEX,HEX,HEX,HEX,HEX,HEX,HEX,HEX,HEX,HEX,HEX,HEX,HEX
0,0,0,-18133,15788,16707,21474,0,-1283,-1160,16384,-11040,7284,6955,-21928,0,0,0,0,0,0,0,0,0,0,0,0,0,0,0,0,0,0,0,0,0,0,0,0,0,0,0,0,0,0,0,0,0,0,0,0,0,0,0
1,1,0,-18133,15788,16707,21474,1,-1368,-1212,16384,-11040,7284,6955,-21928,0,0,0,0,0,0,0,0,0,0,0,0,0,0,0,0,0,0,0,0,0,0,0,0,0,0,0,0,0,0,0,0,0,0,0,0,0,0,0
2,2,0,-11545,-22288,16655,15236,0,-1368,-1212,16340,0,7284,14541,-16036,0,0,0,0,0,0,0,0,0,0,0,0,0,0,0,0,0,0,0,0,0,0,0,0,0,0,0,0,0,0,0,0,0,0,0,0,0,0,0
3,3,0,-11545,-22288,16655,15236,1,-1331,-1128,16340,0,7284,14541,-16036,0,0,0,0,0,0,0,0,0,0,0,0,0,0,0,0,0,0,0,0,0,0,0,0,0,0,0,0,0,0,0,0,0,0,0,0,0,0,0
4,4,0,-11545,-22288,16655,15236,0,-1331,-1128,16340,0,7284,14541,-16036,0,0,0,0,0,0,0,0,0,0,0,0,0,0,0,0,0,0,0,0,0,0,0,0,0,0,0,0,0,0,0,0,0,0,0,0,0,0,0
5,5,0,-11545,-22288,16655,15236,1,-1163,-901,16340,0,7284,14541,-16036,0,0,0,0,0,0,0,0,0,0,0,0,0,0,0,0,0,0,0,0,0,0,0,0,0,0,0,0,0,0,0,0,0,0,0,0,0,0,0
6,6,0,-11545,-22288,15561,4998,0,-1163,-901,16340,0,7284,18798,-8407,0,0,0,0,0,0,0,0,0,0,0,0,0,0,0,0,0,0,0,0,0,0,0,0,0,0,0,0,0,0,0,0,0,0,0,0,0,0,0
7,7,0,-11545,-22288,15561,4998,1,-839,-523,16340,0,7284,18798,-8407,0,0,0,0,0,0,0,0,0,0,0,0,0,0,0,0,0,0,0,0,0,0,0,0,0,0,0,0,0,0,0,0,0,0,0,0,0,0,0
8,8,0,-11545,-22288,15561,4998,0,-839,-523,16340,0,7284,18798,-8407,0,0,0,0,0,0,0,0,0,0,0,0,0,0,0,0,0,0,0,0,0,0,0,0,0,0,0,0,0,0,0,0,0,0,0,0,0,0,0
9,9,0,-11545,-22288,15561,4998,1,-377,-29,16340,0,7284,18798,-8407,0,0,0,0,0,0,0,0,0,0,0,0,0,0,0,0,0,0,0,0,0,0,0,0,0,0,0,0,0,0,0,0,0,0,0,0,0,0,0
10,10,0,-11545,-22288,13918,-6299,0,-377,-29,16340,6658,7284,19681,-179,0,0,0,0,0,0,0,0,0,0,0,0,0,0,0,0,0,0,0,0,0,0,0,0,0,0,0,0,0,0,0,0,0,0,0,0,0,0,0
11,11,0,-11545,-22288,13918,-6299,1,143,491,16340,6658,7284,19681,-179,0,0,0,0,0,0,0,0,0,0,0,0,0,0,0,0,0,0,0,0,0,0,0,0,0,0,0,0,0,0,0,0,0,0,0,0,0,0,0
12,12,0,-11545,-22288,13918,-6299,0,143,491,16340,6658,7284,19681,-179,0,0,0,0,0,0,0,0,0,0,0,0,0,0,0,0,0,0,0,0,0,0,0,0,0,0,0,0,0,0,0,0,0,0,0,0,0,0,0
13,13,0,-11545,-22288,13918,-6299,1,614,924,16340,6658,7284,19681,-179,0,0,0,0,0,0,0,0,0,0,0,0,0,0,0,0,0,0,0,0,0,0,0,0,0,0,0,0,0,0,0,0,0,0,0,0,0,0,0
14,14,0,-11545,-22288,13002,-14563,0,614,924,16340,-6502,7460,18439,7955,0,0,0,0,0,0,0,0,0,0,0,0,0,0,0,0,0,0,0,0,0,0,0,0,0,0,0,0,0,0,0,0,0,0,0,0,0,0,0
15,15,0,-11545,-22288,13002,-14563,1,971,1194,16340,-6502,7460,18439,7955,0,0,0,0,0,0,0,0,0,0,0,0,0,0,0,0,0,0,0,0,0,0,0,0,0,0,0,0,0,0,0,0,0,0,0,0,0,0,0
16,16,0,-11545,-22288,13002,-14563,0,971,1194,16340,-6502,7460,18439,7955,0,0,0,0,0,0,0,0,0,0,0,0,0,0,0,0,0,0,0,0,0,0,0,0,0,0,0,0,0,0,0,0,0,0,0,0,0,0,0
17,17,0,-11545,-22288,13002,-14563,1,1214,1284,16340,-6502,7460,18439,7955,0,0,0,0,0,0,0,0,0,0,0,0,0,0,0,0,0,0,0,0,0,0,0,0,0,0,0,0,0,0,0,0,0,0,0,0,0,0,0
18,18,0,18798,-8407,13979,-16327,0,1214,1284,16358,0,7460,16817,15340,0,0,0,0,0,0,0,0,0,0,0,0,0,0,0,0,0,0,0,0,0,0,0,0,0,0,0,0,0,0,0,0,0,0,0,0,0,0,0
19,19,0,18798,-8407,13979,-16327,1,1374,1211,16358,0,7460,16817,15340,0,0,0,0,0,0,0,0,0,0,0,0,0,0,0,0,0,0,0,0,0,0,0,0,0,0,0,0,0,0,0,0,0,0,0,0,0,0,0
20,20,0,18798,-8407,13979,-16327,0,1374,1211,16358,0,7460,16817,15340,0,0,0,0,0,0,0,0,0,0,0,0,0,0,0,0,0,0,0,0,0,0,0,0,0,0,0,0,0,0,0,0,0,0,0,0,0,0,0
21,21,0,18798,-8407,13979,-16327,1,1468,987,16358,0,7460,16817,15340,0,0,0,0,0,0,0,0,0,0,0,0,0,0,0,0,0,0,0,0,0,0,0,0,0,0,0,0,0,0,0,0,0,0,0,0,0,0,0
22,22,0,18798,-8407,16876,-10680,0,1468,987,16358,0,7636,16070,20937,0,0,0,0,0,0,0,0,0,0,0,0,0,0,0,0,0,0,0,0,0,0,0,0,0,0,0,0,0,0,0,0,0,0,0,0,0,0,0
23,23,0,18798,-8407,16876,-10680,1,1491,623,16358,0,7636,16070,20937,0,0,0,0,0,0,0,0,0,0,0,0,0,0,0,0,0,0,0,0,0,0,0,0,0,0,0,0,0,0,0,0,0,0,0,0,0,0,0
24,24,0,18798,-8407,16876,-10680,0,1491,623,16358,0,7636,16070,20937,0,0,0,0,0,0,0,0,0,0,0,0,0,0,0,0,0,0,0,0,0,0,0,0,0,0,0,0,0,0,0,0,0,0,0,0,0,0,0
25,25,0,18798,-8407,16876,-10680,1,1432,151,16358,0,7636,16070,20937,0,0,0,0,0,0,0,0,0,0,0,0,0,0,0,0,0,0,0,0,0,0,0,0,0,0,0,0,0,0,0,0,0,0,0,0,0,0,0
26,26,0,18798,-8407,20105,-198,0,1432,151,16358,3380,7636,16340,23247,0,0,0,0,0,0,0,0,0,0,0,0,0,0,0,0,0,0,0,0,0,0,0,0,0,0,0,0,0,0,0,0,0,0,0,0,0,0,0
27,27,0,18798,-8407,20105,-198,1,1301,-363,16358,3380,7636,16340,23247,0,0,0,0,0,0,0,0,0,0,0,0,0,0,0,0,0,0,0,0,0,0,0,0,0,0,0,0,0,0,0,0,0,0,0,0,0,0,0
28,28,0,18798,-8407,20105,-198,0,1301,-363,16358,3380,7636,16340,23247,0,0,0,0,0,0,0,0,0,0,0,0,0,0,0,0,0,0,0,0,0,0,0,0,0,0,0,0,0,0,0,0,0,0,0,0,0,0,0
29,29,0,18798,-8407,20105,-198,1,1134,-831,16358,3380,7636,16340,23247,0,0,0,0,0,0,0,0,0,0,0,0,0,0,0,0,0,0,0,0,0,0,0,0,0,0,0,0,0,0,0,0,0,0,0,0,0,0,0
30,30,0,18798,-8407,21026,9945,0,1134,-831,16358,3380,7740,16831,20863,0,0,0,0,0,0,0,0,0,0,0,0,0,0,0,0,0,0,0,0,0,0,0,0,0,0,0,0,0,0,0,0,0,0,0,0,0,0,0
31,31,0,18798,-8407,21026,9945,1,974,-1179,16358,3380,7740,16831,20863,0,0,0,0,0,0,0,0,0,0,0,0,0,0,0,0,0,0,0,0,0,0,0,0,0,0,0,0,0,0,0,0,0,0,0,0,0,0,0
32,32,0,18798,-8407,21026,9945,0,974,-1179,16358,3380,7740,16831,20863,0,0,0,0,0,0,0,0,0,0,0,0,0,0,0,0,0,0,0,0,0,0,0,0,0,0,0,0,0,0,0,0,0,0,0,0,0,0,0
33,33,0,18798,-8407,21026,9945,1,855,-1367,16358,3380,7740,16831,20863,0,0,0,0,0,0,0,0,0,0,0,0,0,0,0,0,0,0,0,0,0,0,0,0,0,0,0,0,0,0,0,0,0,0,0,0,0,0,0
34,34,0,16070,20937,17366,14519,0,855,-1367,16397,0,7740,16545,13349,0,0,0,0,0,0,0,0,0,0,0,0,0,0,0,0,0,0,0,0,0,0,0,0,0,0,0,0,0,0,0,0,0,0,0,0,0,0,0
35,35,0,16070,20937,17366,14519,1,790,-1388,16397,0,7740,16545,13349,0,0,0,0,0,0,0,0,0,0,0,0,0,0,0,0,0,0,0,0,0,0,0,0,0,0,0,0,0,0,0,0,0,0,0,0,0,0,0
36,36,0,16070,20937,17366,14519,0,790,-1388,16397,0,7740,16545,13349,0,0,0,0,0,0,0,0,0,0,0,0,0,0,0,0,0,0,0,0,0,0,0,0,0,0,0,0,0,0,0,0,0,0,0,0,0,0,0
37,37,0,16070,20937,17366,14519,1,778,-1246,16397,0,7740,16545,13349,0,0,0,0,0,0,0,0,0,0,0,0,0,0,0,0,0,0,0,0,0,0,0,0,0,0,0,0,0,0,0,0,0,0,0,0,0,0,0
38,38,0,16070,20937,8763,11103,0,778,-1246,16397,0,7844,15170,2251,0,0,0,0,0,0,0,0,0,0,0,0,0,0,0,0,0,0,0,0,0,0,0,0,0,0,0,0,0,0,0,0,0,0,0,0,0,0,0
39,39,0,16070,20937,8763,11103,1,809,-949,16397,0,7844,15170,2251,0,0,0,0,0,0,0,0,0,0,0,0,0,0,0,0,0,0,0,0,0,0,0,0,0,0,0,0,0,0,0,0,0,0,0,0,0,0,0
40,40,0,16070,20937,8763,11103,0,809,-949,16397,0,7844,15170,2251,0,0,0,0,0,0,0,0,0,0,0,0,0,0,0,0,0,0,0,0,0,0,0,0,0,0,0,0,0,0,0,0,0,0,0,0,0,0,0
41,41,0,16070,20937,8763,11103,1,870,-522,16397,0,7844,15170,2251,0,0,0,0,0,0,0,0,0,0,0,0,0,0,0,0,0,0,0,0,0,0,0,0,0,0,0,0,0,0,0,0,0,0,0,0,0,0,0
42,42,0,16070,20937,-2550,1610,0,870,-522,16397,-18538,7844,13470,-9078,0,0,0,0,0,0,0,0,0,0,0,0,0,0,0,0,0,0,0,0,0,0,0,0,0,0,0,0,0,0,0,0,0,0,0,0,0,0,0
43,43,0,16070,20937,-2550,1610,1,938,-23,16397,-18538,7844,13470,-9078,0,0,0,0,0,0,0,0,0,0,0,0,0,0,0,0,0,0,0,0,0,0,0,0,0,0,0,0,0,0,0,0,0,0,0,0,0,0,0
44,44,0,16070,20937,-2550,1610,0,938,-23,16397,-18538,7844,13470,-9078,0,0,0,0,0,0,0,0,0,0,0,0,0,0,0,0,0,0,0,0,0,0,0,0,0,0,0,0,0,0,0,0,0,0,0,0,0,0,0
45,45,0,16070,20937,-2550,1610,1,997,467,16397,-18538,7844,13470,-9078,0,0,0,0,0,0,0,0,0,0,0,0,0,0,0,0,0,0,0,0,0,0,0,0,0,0,0,0,0,0,0,0,0,0,0,0,0,0,0
46,46,0,16070,20937,-12482,-8624,0,997,467,16397,-18538,7792,12888,-16218,0,0,0,0,0,0,0,0,0,0,0,0,0,0,0,0,0,0,0,0,0,0,0,0,0,0,0,0,0,0,0,0,0,0,0,0,0,0,0
47,47,0,16070,20937,-12482,-8624,1,1042,876,16397,-18538,7792,12888,-16218,0,0,0,0,0,0,0,0,0,0,0,0,0,0,0,0,0,0,0,0,0,0,0,0,0,0,0,0,0,0,0,0,0,0,0,0,0,0,0
48,48,0,16070,20937,-12482,-8624,0,1042,876,16397,-18538,7792,12888,-16218,0,0,0,0,0,0,0,0,0,0,0,0,0,0,0,0,0,0,0,0,0,0,0,0,0,0,0,0,0,0,0,0,0,0,0,0,0,0,0
49,49,0,16070,20937,-12482,-8624,1,1082,1166,16397,-18538,7792,12888,-16218,0,0,0,0,0,0,0,0,0,0,0,0,0,0,0,0,0,0,0,0,0,0,0,0,0,0,0,0,0,0,0,0,0,0,0,0,0,0,0
50,50,0,15170,2251,-16984,-13795,0,1082,1166,16311,0,7792,14459,-16099,0,0,0,0,0,0,0,0,0,0,0,0,0,0,0,0,0,0,0,0,0,0,0,0,0,0,0,0,0,0,0,0,0,0,0,0,0,0,0
51,51,0,15170,2251,-16984,-13795,1,1126,1333,16311,0,7792,14459,-16099,0,0,0,0,0,0,0,0,0,0,0,0,0,0,0,0,0,0,0,0,0,0,0,0,0,0,0,0,0,0,0,0,0,0,0,0,0,0,0
52,52,0,15170,2251,-16984,-13795,0,1126,1333,16311,0,7792,14459,-16099,0,0,0,0,0,0,0,0,0,0,0,0,0,0,0,0,0,0,0,0,0,0,0,0,0,0,0,0,0,0,0,0,0,0,0,0,0,0,0
53,53,0,15170,2251,-16984,-13795,1,1181,1391,16311,0,7792,14459,-16099,0,0,0,0,0,0,0,0,0,0,0,0,0,0,0,0,0,0,0,0,0,0,0,0,0,0,0,0,0,0,0,0,0,0,0,0,0,0,0
54,54,0,15170,2251,-14128,-10966,0,1181,1391,16311,0,7740,17816,-8610,0,0,0,0,0,0,0,0,0,0,0,0,0,0,0,0,0,0,0,0,0,0,0,0,0,0,0,0,0,0,0,0,0,0,0,0,0,0,0
55,55,0,15170,2251,-14128,-10966,1,1243,1359,16311,0,7740,17816,-8610,0,0,0,0,0,0,0,0,0,0,0,0,0,0,0,0,0,0,0,0,0,0,0,0,0,0,0,0,0,0,0,0,0,0,0,0,0,0,0
56,56,0,15170,2251,-14128,-10966,0,1243,1359,16311,0,7740,17816,-8610,0,0,0,0,0,0,0,0,0,0,0,0,0,0,0,0,0,0,0,0,0,0,0,0,0,0,0,0,0,0,0,0,0,0,0,0,0,0,0
57,57,0,15170,2251,-14128,-10966,1,1305,1265,16311,0,7740,17816,-8610,0,0,0,0,0,0,0,0,0,0,0,0,0,0,0,0,0,0,0,0,0,0,0,0,0,0,0,0,0,0,0,0,0,0,0,0,0,0,0
58,58,0,15170,2251,-5154,-1775,0,1305,1265,16311,0,7740,20952,2767,0,0,0,0,0,0,0,0,0,0,0,0,0,0,0,0,0,0,0,0,0,0,0,0,0,0,0,0,0,0,0,0,0,0,0,0,0,0,0
59,59,0,15170,2251,-5154,-1775,1,1349,1143,16311,0,7740,20952,2767,0,0,0,0,0,0,0,0,0,0,0,0,0,0,0,0,0,0,0,0,0,0,0,0,0,0,0,0,0,0,0,0,0,0,0,0,0,0,0
60,60,0,15170,2251,-5154,-1775,0,1349,1143,16311,0,7740,20952,2767,0,0,0,0,0,0,0,0,0,0,0,0,0,0,0,0,0,0,0,0,0,0,0,0,0,0,0,0,0,0,0,0,0,0,0,0,0,0,0
61,61,0,15170,2251,-5154,-1775,1,1359,1023,16311,0,7740,20952,2767,0,0,0,0,0,0,0,0,0,0,0,0,0,0,0,0,0,0,0,0,0,0,0,0,0,0,0,0,0,0,0,0,0,0,0,0,0,0,0
62,62,0,15170,2251,6145,8525,0,1359,1023,16311,0,8032,21016,12273,0,0,0,0,0,0,0,0,0,0,0,0,0,0,0,0,0,0,0,0,0,0,0,0,0,0,0,0,0,0,0,0,0,0,0,0,0,0,0
63,63,0,15170,2251,6145,8525,1,1320,933,16311,0,8032,21016,12273,0,0,0,0,0,0,0,0,0,0,0,0,0,0,0,0,0,0,0,0,0,0,0,0,0,0,0,0,0,0,0,0,0,0,0,0,0,0,0
64,64,0,15170,2251,6145,8525,0,1320,933,16311,0,8032,21016,12273,0,0,0,0,0,0,0,0,0,0,0,0,0,0,0,0,0,0,0,0,0,0,0,0,0,0,0,0,0,0,0,0,0,0,0,0,0,0,0
65,65,0,15170,2251,6145,8525,1,1224,892,16311,0,8032,21016,12273,0,0,0,0,0,0,0,0,0,0,0,0,0,0,0,0,0,0,0,0,0,0,0,0,0,0,0,0,0,0,0,0,0,0,0,0,0,0,0
66,66,0,17816,-8610,15388,14104,0,1224,892,16384,0,8032,16013,14981,0,0,0,0,0,0,0,0,0,0,0,0,0,0,0,0,0,0,0,0,0,0,0,0,0,0,0,0,0,0,0,0,0,0,0,0,0,0,0
67,67,0,17816,-8610,15388,14104,1,1069,901,16384,0,8032,16013,14981,0,0,0,0,0,0,0,0,0,0,0,0,0,0,0,0,0,0,0,0,0,0,0,0,0,0,0,0,0,0,0,0,0,0,0,0,0,0,0
68,68,0,17816,-8610,15388,14104,0,1069,901,16384,0,8032,16013,14981,0,0,0,0,0,0,0,0,0,0,0,0,0,0,0,0,0,0,0,0,0,0,0,0,0,0,0,0,0,0,0,0,0,0,0,0,0,0,0
69,69,0,17816,-8610,15388,14104,1,855,953,16384,0,8032,16013,14981,0,0,0,0,0,0,0,0,0,0,0,0,0,0,0,0,0,0,0,0,0,0,0,0,0,0,0,0,0,0,0,0,0,0,0,0,0,0,0
70,70,0,17816,-8610,19785,11838,0,855,953,16384,0,8324,6192,9463,0,0,0,0,0,0,0,0,0,0,0,0,0,0,0,0,0,0,0,0,0,0,0,0,0,0,0,0,0,0,0,0,0,0,0,0,0,0,0
71,71,0,17816,-8610,19785,11838,1,588,1032,16384,0,8324,6192,9463,0,0,0,0,0,0,0,0,0,0,0,0,0,0,0,0,0,0,0,0,0,0,0,0,0,0,0,0,0,0,0,0,0,0,0,0,0,0,0
72,72,0,17816,-8610,19785,11838,0,588,1032,16384,0,8324,6192,9463,0,0,0,0,0,0,0,0,0,0,0,0,0,0,0,0,0,0,0,0,0,0,0,0,0,0,0,0,0,0,0,0,0,0,0,0,0,0,0
73,73,0,17816,-8610,19785,11838,1,281,1120,16384,0,8324,6192,9463,0,0,0,0,0,0,0,0,0,0,0,0,0,0,0,0,0,0,0,0,0,0,0,0,0,0,0,0,0,0,0,0,0,0,0,0,0,0,0
74,74,0,17816,-8610,19322,2908,0,281,1120,16384,-18024,8324,-5512,-1198,0,0,0,0,0,0,0,0,0,0,0,0,0,0,0,0,0,0,0,0,0,0,0,0,0,0,0,0,0,0,0,0,0,0,0,0,0,0,0
75,75,0,17816,-8610,19322,2908,1,-47,1192,16384,-18024,8324,-5512,-1198,0,0,0,0,0,0,0,0,0,0,0,0,0,0,0,0,0,0,0,0,0,0,0,0,0,0,0,0,0,0,0,0,0,0,0,0,0,0,0
76,76,0,17816,-8610,19322,2908,0,-47,1192,16384,-18024,8324,-5512,-1198,0,0,0,0,0,0,0,0,0,0,0,0,0,0,0,0,0,0,0,0,0,0,0,0,0,0,0,0,0,0,0,0,0,0,0,0,0,0,0
77,77,0,17816,-8610,19322,2908,1,-372,1231,16384,-18024,8324,-5512,-1198,0,0,0,0,0,0,0,0,0,0,0,0,0,0,0,0,0,0,0,0,0,0,0,0,0,0,0,0,0,0,0,0,0,0,0,0,0,0,0
78,78,0,17816,-8610,16328,-8056,0,-372,1231,16384,-18024,8324,-14700,-11025,0,0,0,0,0,0,0,0,0,0,0,0,0,0,0,0,0,0,0,0,0,0,0,0,0,0,0,0,0,0,0,0,0,0,0,0,0,0,0
79,79,0,17816,-8610,16328,-8056,1,-674,1234,16384,-18024,8324,-14700,-11025,0,0,0,0,0,0,0,0,0,0,0,0,0,0,0,0,0,0,0,0,0,0,0,0,0,0,0,0,0,0,0,0,0,0,0,0,0,0,0
80,80,0,17816,-8610,16328,-8056,0,-674,1234,16384,-18024,8324,-14700,-11025,0,0,0,0,0,0,0,0,0,0,0,0,0,0,0,0,0,0,0,0,0,0,0,0,0,0,0,0,0,0,0,0,0,0,0,0,0,0,0
81,81,0,17816,-8610,16328,-8056,1,-941,1211,16384,-18024,8324,-14700,-11025,0,0,0,0,0,0,0,0,0,0,0,0,0,0,0,0,0,0,0,0,0,0,0,0,0,0,0,0,0,0,0,0,0,0,0,0,0,0,0
82,82,0,6192,9463,13803,-15611,0,-941,1211,16313,0,8324,-17532,-14431,0,0,0,0,0,0,0,0,0,0,0,0,0,0,0,0,0,0,0,0,0,0,0,0,0,0,0,0,0,0,0,0,0,0,0,0,0,0,0
83,83,0,6192,9463,13803,-15611,1,-1163,1174,16313,0,8324,-17532,-14431,0,0,0,0,0,0,0,0,0,0,0,0,0,0,0,0,0,0,0,0,0,0,0,0,0,0,0,0,0,0,0,0,0,0,0,0,0,0,0
84,84,0,6192,9463,13803,-15611,0,-1163,1174,16313,0,8324,-17532,-14431,0,0,0,0,0,0,0,0,0,0,0,0,0,0,0,0,0,0,0,0,0,0,0,0,0,0,0,0,0,0,0,0,0,0,0,0,0,0,0
85,85,0,6192,9463,13803,-15611,1,-1330,1135,16313,0,8324,-17532,-14431,0,0,0,0,0,0,0,0,0,0,0,0,0,0,0,0,0,0,0,0,0,0,0,0,0,0,0,0,0,0,0,0,0,0,0,0,0,0,0
86,86,0,6192,9463,13569,-16244,0,-1330,1135,16313,0,8324,-12710,-9405,0,0,0,0,0,0,0,0,0,0,0,0,0,0,0,0,0,0,0,0,0,0,0,0,0,0,0,0,0,0,0,0,0,0,0,0,0,0,0
87,87,0,6192,9463,13569,-16244,1,-1437,1107,16313,0,8324,-12710,-9405,0,0,0,0,0,0,0,0,0,0,0,0,0,0,0,0,0,0,0,0,0,0,0,0,0,0,0,0,0,0,0,0,0,0,0,0,0,0,0
88,88,0,6192,9463,13569,-16244,0,-1437,1107,16313,0,8324,-12710,-9405,0,0,0,0,0,0,0,0,0,0,0,0,0,0,0,0,0,0,0,0,0,0,0,0,0,0,0,0,0,0,0,0,0,0,0,0,0,0,0
89,89,0,6192,9463,13569,-16244,1,-1481,1102,16313,0,8324,-12710,-9405,0,0,0,0,0,0,0,0,0,0,0,0,0,0,0,0,0,0,0,0,0,0,0,0,0,0,0,0,0,0,0,0,0,0,0,0,0,0,0
90,90,0,6192,9463,15345,-9738,0,-1481,1102,16313,22882,8324,-2311,1183,0,0,0,0,0,0,0,0,0,0,0,0,0,0,0,0,0,0,0,0,0,0,0,0,0,0,0,0,0,0,0,0,0,0,0,0,0,0,0
91,91,0,6192,9463,15345,-9738,1,-1463,1120,16313,22882,8324,-2311,1183,0,0,0,0,0,0,0,0,0,0,0,0,0,0,0,0,0,0,0,0,0,0,0,0,0,0,0,0,0,0,0,0,0,0,0,0,0,0,0
92,92,0,6192,9463,15345,-9738,0,-1463,1120,16313,22882,8324,-2311,1183,0,0,0,0,0,0,0,0,0,0,0,0,0,0,0,0,0,0,0,0,0,0,0,0,0,0,0,0,0,0,0,0,0,0,0,0,0,0,0
93,93,0,6192,9463,15345,-9738,1,-1386,1156,16313,22882,8324,-2311,1183,0,0,0,0,0,0,0,0,0,0,0,0,0,0,0,0,0,0,0,0,0,0,0,0,0,0,0,0,0,0,0,0,0,0,0,0,0,0,0
94,94,0,6192,9463,17156,1282,0,-1386,1156,16313,0,8608,9146,11132,0,0,0,0,0,0,0,0,0,0,0,0,0,0,0,0,0,0,0,0,0,0,0,0,0,0,0,0,0,0,0,0,0,0,0,0,0,0,0
95,95,0,6192,9463,17156,1282,1,-1250,1201,16313,0,8608,9146,11132,0,0,0,0,0,0,0,0,0,0,0,0,0,0,0,0,0,0,0,0,0,0,0,0,0,0,0,0,0,0,0,0,0,0,0,0,0,0,0
96,96,0,6192,9463,17156,1282,0,-1250,1201,16313,0,8608,9146,11132,0,0,0,0,0,0,0,0,0,0,0,0,0,0,0,0,0,0,0,0,0,0,0,0,0,0,0,0,0,0,0,0,0,0,0,0,0,0,0
97,97,0,6192,9463,17156,1282,1,-1064,1240,16313,0,8608,9146,11132,0,0,0,0,0,0,0,0,0,0,0,0,0,0,0,0,0,0,0,0,0,0,0,0,0,0,0,0,0,0,0,0,0,0,0,0,0,0,0
98,98,0,-12710,-9405,16653,12966,0,-1064,1240,16384,0,8608,17423,14902,0,0,0,0,0,0,0,0,0,0,0,0,0,0,0,0,0,0,0,0,0,0,0,0,0,0,0,0,0,0,0,0,0,0,0,0,0,0,0
99,99,0,-12710,-9405,16653,12966,1,-839,1260,16384,0,8608,17423,14902,0,0,0,0,0,0,0,0,0,0,0,0,0,0,0,0,0,0,0,0,0,0,0,0,0,0,0,0,0,0,0,0,0,0,0,0,0,0,0
100,100,1,-12710,-9405,16653,12966,0,-839,1260,16384,0,8608,17423,14902,0,0,0,0,0,0,0,0,0,0,0,0,0,0,0,0,0,0,0,0,0,0,0,0,0,0,0,0,0,0,0,0,0,0,0,0,0,0,0
101,101,0,-12710,-9405,16653,12966,1,-584,1247,16384,0,8608,17423,14902,0,0,0,0,0,0,0,0,0,0,0,0,0,0,0,0,0,0,0,0,0,0,0,0,0,0,0,0,0,0,0,0,0,0,0,0,0,0,0
102,102,0,-12710,-9405,12474,21885,0,-584,1247,16384,0,8892,20367,10393,0,0,0,0,0,0,0,0,0,0,0,0,0,0,0,0,0,0,0,0,0,0,0,0,0,0,0,0,0,0,0,0,0,0,0,0,0,0,0
103,103,0,-12710,-9405,12474,21885,1,-308,1196,16384,0,8892,20367,10393,0,0,0,0,0,0,0,0,0,0,0,0,0,0,0,0,0,0,0,0,0,0,0,0,0,0,0,0,0,0,0,0,0,0,0,0,0,0,0
104,104,0,-12710,-9405,12474,21885,0,-308,1196,16384,0,8892,20367,10393,0,0,0,0,0,0,0,0,0,0,0,0,0,0,0,0,0,0,0,0,0,0,0,0,0,0,0,0,0,0,0,0,0,0,0,0,0,0,0
105,105,0,-12710,-9405,12474,21885,1,-20,1118,16384,0,8892,20367,10393,0,0,0,0,0,0,0,0,0,0,0,0,0,0,0,0,0,0,0,0,0,0,0,0,0,0,0,0,0,0,0,0,0,0,0,0,0,0,0
106,106,0,-12710,-9405,4883,25951,0,-20,1118,16384,10636,8892,18756,-8,0,0,0,0,0,0,0,0,0,0,0,0,0,0,0,0,0,0,0,0,0,0,0,0,0,0,0,0,0,0,0,0,0,0,0,0,0,0,0
107,107,0,-12710,-9405,4883,25951,1,267,1027,16384,10636,8892,18756,-8,0,0,0,0,0,0,0,0,0,0,0,0,0,0,0,0,0,0,0,0,0,0,0,0,0,0,0,0,0,0,0,0,0,0,0,0,0,0,0
108,108,0,-12710,-9405,4883,25951,0,267,1027,16384,10636,8892,18756,-8,0,0,0,0,0,0,0,0,0,0,0,0,0,0,0,0,0,0,0,0,0,0,0,0,0,0,0,0,0,0,0,0,0,0,0,0,0,0,0
109,109,0,-12710,-9405,4883,25951,1,539,944,16384,10636,8892,18756,-8,0,0,0,0,0,0,0,0,0,0,0,0,0,0,0,0,0,0,0,0,0,0,0,0,0,0,0,0,0,0,0,0,0,0,0,0,0,0,0
110,110,0,-12710,-9405,-4524,24524,0,539,944,16384,10636,8892,15424,-10955,0,0,0,0,0,0,0,0,0,0,0,0,0,0,0,0,0,0,0,0,0,0,0,0,0,0,0,0,0,0,0,0,0,0,0,0,0,0,0
111,111,0,-12710,-9405,-4524,24524,1,788,888,16384,10636,8892,15424,-10955,0,0,0,0,0,0,0,0,0,0,0,0,0,0,0,0,0,0,0,0,0,0,0,0,0,0,0,0,0,0,0,0,0,0,0,0,0,0,0
112,112,0,-12710,-9405,-4524,24524,0,788,888,16384,10636,8892,15424,-10955,0,0,0,0,0,0,0,0,0,0,0,0,0,0,0,0,0,0,0,0,0,0,0,0,0,0,0,0,0,0,0,0,0,0,0,0,0,0,0
113,113,0,-12710,-9405,-4524,24524,1,1008,875,16384,10636,8892,15424,-10955,0,0,0,0,0,0,0,0,0,0,0,0,0,0,0,0,0,0,0,0,0,0,0,0,0,0,0,0,0,0,0,0,0,0,0,0,0,0,0
114,114,0,20367,10393,-13626,18174,0,1008,875,16425,0,8892,13324,-17140,0,0,0,0,0,0,0,0,0,0,0,0,0,0,0,0,0,0,0,0,0,0,0,0,0,0,0,0,0,0,0,0,0,0,0,0,0,0,0
115,115,0,20367,10393,-13626,18174,1,1195,910,16425,0,8892,13324,-17140,0,0,0,0,0,0,0,0,0,0,0,0,0,0,0,0,0,0,0,0,0,0,0,0,0,0,0,0,0,0,0,0,0,0,0,0,0,0,0
116,116,0,20367,10393,-13626,18174,0,1195,910,16425,0,8892,13324,-17140,0,0,0,0,0,0,0,0,0,0,0,0,0,0,0,0,0,0,0,0,0,0,0,0,0,0,0,0,0,0,0,0,0,0,0,0,0,0,0
117,117,0,20367,10393,-13626,18174,1,1346,984,16425,0,8892,13324,-17140,0,0,0,0,0,0,0,0,0,0,0,0,0,0,0,0,0,0,0,0,0,0,0,0,0,0,0,0,0,0,0,0,0,0,0,0,0,0,0
118,118,0,20367,10393,-20522,8507,0,1346,984,16425,0,8892,13837,-15665,0,0,0,0,0,0,0,0,0,0,0,0,0,0,0,0,0,0,0,0,0,0,0,0,0,0,0,0,0,0,0,0,0,0,0,0,0,0,0
119,119,0,20367,10393,-20522,8507,1,1459,1081,16425,0,8892,13837,-15665,0,0,0,0,0,0,0,0,0,0,0,0,0,0,0,0,0,0,0,0,0,0,0,0,0,0,0,0,0,0,0,0,0,0,0,0,0,0,0
120,120,0,20367,10393,-20522,8507,0,1459,1081,16425,0,8892,13837,-15665,0,0,0,0,0,0,0,0,0,0,0,0,0,0,0,0,0,0,0,0,0,0,0,0,0,0,0,0,0,0,0,0,0,0,0,0,0,0,0
121,121,0,20367,10393,-20522,8507,1,1530,1179,16425,0,8892,13837,-15665,0,0,0,0,0,0,0,0,0,0,0,0,0,0,0,0,0,0,0,0,0,0,0,0,0,0,0,0,0,0,0,0,0,0,0,0,0,0,0
122,122,0,20367,10393,-23926,-1980,0,1530,1179,16425,16638,8892,16061,-7261,0,0,0,0,0,0,0,0,0,0,0,0,0,0,0,0,0,0,0,0,0,0,0,0,0,0,0,0,0,0,0,0,0,0,0,0,0,0,0
123,123,0,20367,10393,-23926,-1980,1,1557,1257,16425,16638,8892,16061,-7261,0,0,0,0,0,0,0,0,0,0,0,0,0,0,0,0,0,0,0,0,0,0,0,0,0,0,0,0,0,0,0,0,0,0,0,0,0,0,0
124,124,0,20367,10393,-23926,-1980,0,1557,1257,16425,16638,8892,16061,-7261,0,0,0,0,0,0,0,0,0,0,0,0,0,0,0,0,0,0,0,0,0,0,0,0,0,0,0,0,0,0,0,0,0,0,0,0,0,0,0
125,125,0,20367,10393,-23926,-1980,1,1533,1300,16425,16638,8892,16061,-7261,0,0,0,0,0,0,0,0,0,0,0,0,0,0,0,0,0,0,0,0,0,0,0,0,0,0,0,0,0,0,0,0,0,0,0,0,0,0,0
126,126,0,20367,10393,-23217,-10303,0,1533,1300,16425,0,8728,17611,4659,0,0,0,0,0,0,0,0,0,0,0,0,0,0,0,0,0,0,0,0,0,0,0,0,0,0,0,0,0,0,0,0,0,0,0,0,0,0,0
127,127,0,20367,10393,-23217,-10303,1,1454,1289,16425,0,8728,17611,4659,0,0,0,0,0,0,0,0,0,0,0,0,0,0,0,0,0,0,0,0,0,0,0,0,0,0,0,0,0,0,0,0,0,0,0,0,0,0,0
